"Freq [kHz]","Phase [deg]","W_winding [mm]","r_leg [mm]","All_Core_Total_Loss []"
500,0,4,4,88.47154883108
500,0,4,4.5,59.0774799971491
500,0,4,5,41.9803420012248
500,0,4,5.5,31.5638747210309
500,0,4,6,25.0980976942359
500,0,4,6.5,20.7900052163049
500,0,4,7,17.8697073908926
500,0,4,7.5,15.898893817612
500,0,4,8,14.4243746267344
500,0,4,8.5,13.5195176147277
500,0,4,9,12.8450542513275
500,0,4,9.5,12.4021923627302
500,0,4,10,12.0795857038774
500,0,4,10.5,11.916568007845
500,0,4,11,11.7949351575712
500,0,4,11.5,11.7519425359087
500,0,4,12,11.7484806500911
500,0,4.5,4,92.4784014118254
500,0,4.5,4.5,61.3893037112087
500,0,4.5,5,43.425993596871
500,0,4.5,5.5,32.6899822864887
500,0,4.5,6,25.7087683277484
500,0,4.5,6.5,21.1841547635959
500,0,4.5,7,18.2017055951162
500,0,4.5,7.5,16.0602209669242
500,0,4.5,8,14.6473538573403
500,0,4.5,8.5,13.6761600844617
500,0,4.5,9,12.9717424440627
500,0,4.5,9.5,12.478534632428
500,0,4.5,10,12.156375746756
500,0,4.5,10.5,11.9707858731612
500,0,4.5,11,11.8471817983466
500,0,4.5,11.5,11.8392319012312
500,0,4.5,12,11.8569263127234
500,0,5,4,96.6588021936501
500,0,5,4.5,63.8729914633452
500,0,5,5,45.0213348967824
500,0,5,5.5,33.5651490232943
500,0,5,6,26.431274762459
500,0,5,6.5,21.6470330543695
500,0,5,7,18.5433111998122
500,0,5,7.5,16.311967685749
500,0,5,8,14.7774692779741
500,0,5,8.5,13.7835218827241
500,0,5,9,13.1121539089114
500,0,5,9.5,12.5173374848172
500,0,5,10,12.2237702159386
500,0,5,10.5,12.035098852877
500,0,5,11,11.8660745669215
500,0,5,11.5,11.8510034322034
500,0,5,12,11.9042996338149
500,0,5.5,4,100.976109647518
500,0,5.5,4.5,66.3310202982395
500,0,5.5,5,46.4497677066382
500,0,5.5,5.5,34.5272703637783
500,0,5.5,6,27.0928240088778
500,0,5.5,6.5,22.1073141221507
500,0,5.5,7,18.8726728391079
500,0,5.5,7.5,16.5083250811353
500,0,5.5,8,14.9047885251824
500,0,5.5,8.5,13.8386986232999
500,0,5.5,9,13.1350851393905
500,0,5.5,9.5,12.6308279947506
500,0,5.5,10,12.280174265954
500,0,5.5,10.5,12.0894319329968
500,0,5.5,11,11.9691989938812
500,0,5.5,11.5,11.9581274411676
500,0,5.5,12,11.9323906829207
500,0,6,4,105.534079314474
500,0,6,4.5,68.8279393766165
500,0,6,5,47.9699142106182
500,0,6,5.5,35.556086649572
500,0,6,6,27.6113062145873
500,0,6,6.5,22.4612564307943
500,0,6,7,19.1036539043399
500,0,6,7.5,16.6868537075606
500,0,6,8,15.1007606718383
500,0,6,8.5,13.9664414729002
500,0,6,9,13.2003843013596
500,0,6,9.5,12.6585565577851
500,0,6,10,12.3410334478017
500,0,6,10.5,12.0855216694932
500,0,6,11,12.0108382850468
500,0,6,11.5,11.9232603211002
500,0,6,12,12.0207181013706
500,0,6.5,4,110.102887721601
500,0,6.5,4.5,71.1821400550284
500,0,6.5,5,49.46234315263
500,0,6.5,5.5,36.5759174488403
500,0,6.5,6,28.2667009835488
500,0,6.5,6.5,22.8878595820306
500,0,6.5,7,19.3294271982229
500,0,6.5,7.5,16.9056146605038
500,0,6.5,8,15.1759660792871
500,0,6.5,8.5,14.0178328212453
500,0,6.5,9,13.2387840712009
500,0,6.5,9.5,12.7150694066888
500,0,6.5,10,12.3298249124761
500,0,6.5,10.5,12.0713083096226
500,0,6.5,11,11.9381570219603
500,0,6.5,11.5,11.9581849542189
500,0,6.5,12,11.9336664604111
500,0,7,4,114.290377353968
500,0,7,4.5,74.2976412330116
500,0,7,5,51.1246749136444
500,0,7,5.5,37.4042749774202
500,0,7,6,28.8687769810929
500,0,7,6.5,23.2435939372018
500,0,7,7,19.5527829328028
500,0,7,7.5,17.0625946909478
500,0,7,8,15.2974994582928
500,0,7,8.5,14.0333160487587
500,0,7,9,13.238758693796
500,0,7,9.5,12.7499622060179
500,0,7,10,12.319575436845
500,0,7,10.5,12.0720149233311
500,0,7,11,11.9992003390469
500,0,7,11.5,11.9294922393724
500,0,7,12,11.9594503069122
500,0,7.5,4,118.925030557126
500,0,7.5,4.5,76.2913133831902
500,0,7.5,5,52.4230703326109
500,0,7.5,5.5,38.33108953563
500,0,7.5,6,29.3699109982162
500,0,7.5,6.5,23.7203236441783
500,0,7.5,7,19.7160837732419
500,0,7.5,7.5,17.21421303324
500,0,7.5,8,15.3599826668151
500,0,7.5,8.5,14.1192763260038
500,0,7.5,9,13.2901186251479
500,0,7.5,9.5,12.7125327428896
500,0,7.5,10,12.3129652245764
500,0,7.5,10.5,12.0492163702014
500,0,7.5,11,11.9414611090673
500,0,7.5,11.5,11.8818785317972
500,0,7.5,12,11.9526842581067
500,0,8,4,123.364482608552
500,0,8,4.5,79.1370900122319
500,0,8,5,54.1577020154834
500,0,8,5.5,39.2863772117205
500,0,8,6,29.9493251598375
500,0,8,6.5,23.9034966545568
500,0,8,7,20.0542647434611
500,0,8,7.5,17.3348427461832
500,0,8,8,15.482398971242
500,0,8,8.5,14.1260356780172
500,0,8,9,13.2608035112762
500,0,8,9.5,12.697090577673
500,0,8,10,12.2826519199524
500,0,8,10.5,12.054044386795
500,0,8,11,11.8753799340673
500,0,8,11.5,11.8897681613199
500,0,8,12,11.8981241398952
500,0,8,13,12.0701170182421
500,0,8,14,12.3409303898314
500,0,8,15,12.7574472768396
500,0,8,16,13.2923368048951
500,0,9,4,132.559668724128
500,0,9,5,57.0286480961851
500,0,9,6,31.0448507193069
500,0,9,7,20.4338836404953
500,0,9,8,15.613677419315
500,0,9,9,13.2791500388918
500,0,9,10,12.143849330613
500,0,9,11,11.7788036150997
500,0,9,12,11.777283550653
500,0,9,13,11.9693603000528
500,0,9,14,12.2870484650028
500,0,9,15,12.7050145845913
500,0,9,16,13.1373511579704
500,0,10,4,141.31302882112
500,0,10,5,60.2135279846393
500,0,10,6,32.295266268226
500,0,10,7,20.9776774914196
500,0,10,8,15.4264606964388
500,0,10,9,13.2431177354315
500,0,10,10,12.0818063464611
500,0,10,11,11.5869240562558
500,0,10,12,11.6226704789607
500,0,10,13,11.7810463377543
500,0,10,14,12.1324810180958
500,0,10,15,12.5854480959604
500,0,10,16,12.9898311058456
500,0,11,4,151.012779489885
500,0,11,5,63.4381976478728
500,0,11,6,33.573913913972
500,0,11,7,21.2677451214633
500,0,11,8,15.7466702976017
500,0,11,9,13.1619780655831
500,0,11,10,11.9661343000765
500,0,11,11,11.3811359284874
500,0,11,12,11.4283899508551
500,0,11,13,11.6474470097711
500,0,11,14,11.9634180233765
500,0,11,15,12.4058424131695
500,0,11,16,12.9209241229172
500,0,12,4,159.782657421591
500,0,12,5,66.6987907052791
500,0,12,6,34.5839117214082
500,0,12,7,21.598722078286
500,0,12,8,15.847843022688
500,0,12,9,12.9687304685306
500,0,12,10,11.7195525259892
500,0,12,11,11.2731216746957
500,0,12,12,11.2535920542773
500,0,12,13,11.4242979664189
500,0,12,14,11.7382724385323
500,0,12,15,12.1761170920818
500,0,12,16,12.725975937895
